(1625764482.942093) vcan0 14FD3EFE#AABBCCDD01742697
(1625764482.942631) vcan0 18F00F52#AABBCCDD02273565
(1625764482.942933) vcan0 18F00E51#AABBCCDD037C8897
(1625764483.241852) vcan0 14FD3EFE#AABBCCDD04372374
(1625764483.242379) vcan0 18F00F52#AABBCCDD0591AE4B
(1625764483.242913) vcan0 18F00E51#AABBCCDD068BE6F6
(1625764483.541678) vcan0 14FD3EFE#AABBCCDD07D77BFE
(1625764483.542208) vcan0 18F00F52#AABBCCDD08E743F7
(1625764483.542740) vcan0 18F00E51#AABBCCDD099EC5A8
(1625764483.841839) vcan0 14FD3EFE#AABBCCDD0A537E27
(1625764483.842359) vcan0 18F00F52#AABBCCDD0BFE458C
(1625764483.842886) vcan0 18F00E51#AABBCCDD0CB1D1DC
(1625764484.142407) vcan0 14FD3EFE#AABBCCDD0DFAA85C
(1625764484.143189) vcan0 18F00F52#AABBCCDD0EC94A3D
(1625764484.146777) vcan0 18F00E51#AABBCCDD0F80B4E9
(1625764484.442071) vcan0 14FD3EFE#AABBCCDD10E3037B
(1625764484.442603) vcan0 18F00F52#AABBCCDD1117C06A
(1625764484.446775) vcan0 18F00E51#AABBCCDD1295755F
(1625764484.742450) vcan0 14FD3EFE#AABBCCDD1357089B
(1625764484.742982) vcan0 18F00F52#AABBCCDD1499E35C
(1625764484.746775) vcan0 18F00E51#AABBCCDD15A44EC0
(1625764485.041849) vcan0 14FD3EFE#AABBCCDD164B1637
(1625764485.042377) vcan0 18F00F52#AABBCCDD17AC3221
(1625764485.046774) vcan0 18F00E51#AABBCCDD187586B0
(1625764485.342451) vcan0 14FD3EFE#AABBCCDD19CAC91C
(1625764485.342983) vcan0 18F00F52#AABBCCDD1A13FD74
(1625764485.346774) vcan0 18F00E51#AABBCCDD1BD0CA6D
(1625764485.642177) vcan0 14FD3EFE#AABBCCDD1CE786C1
(1625764485.642702) vcan0 18F00F52#AABBCCDD1D3FB002
(1625764485.646771) vcan0 18F00E51#AABBCCDD1E325EF4
(1625764485.942496) vcan0 14FD3EFE#AABBCCDD1FDDB53A
(1625764485.943029) vcan0 18F00F52#AABBCCDD2024D60C
(1625764485.946775) vcan0 18F00E51#AABBCCDD21A0A251
(1625764486.242119) vcan0 14FD3EFE#AABBCCDD228806FF
(1625764486.242648) vcan0 18F00F52#AABBCCDD239E1366
(1625764486.246774) vcan0 18F00E51#AABBCCDD24ABD278
(1625764486.542366) vcan0 14FD3EFE#AABBCCDD25C6FBFA
(1625764486.542898) vcan0 18F00F52#AABBCCDD266D1597
(1625764486.546774) vcan0 18F00E51#AABBCCDD27A77342
(1625764486.842104) vcan0 14FD3EFE#AABBCCDD281FEA46
(1625764486.842641) vcan0 18F00F52#AABBCCDD2967CA89
(1625764486.846775) vcan0 18F00E51#AABBCCDD2A2BA360
(1625764487.142203) vcan0 14FD3EFE#AABBCCDD2BDBB12D
(1625764487.142747) vcan0 18F00F52#AABBCCDD2C344A8B
(1625764487.146774) vcan0 18F00E51#AABBCCDD2DFD05FF
(1625764487.442106) vcan0 14FD3EFE#AABBCCDD2E536D7A
(1625764487.442642) vcan0 18F00F52#AABBCCDD2F0441FD
(1625764487.446774) vcan0 18F00E51#AABBCCDD305A08D0
(1625764487.742192) vcan0 14FD3EFE#AABBCCDD314F72E6
(1625764487.742725) vcan0 18F00F52#AABBCCDD32E54CCE
(1625764487.746774) vcan0 18F00E51#AABBCCDD3305645A
(1625764488.042047) vcan0 14FD3EFE#AABBCCDD34FEE33E
(1625764488.042587) vcan0 18F00F52#AABBCCDD35668166
(1625764488.046772) vcan0 18F00E51#AABBCCDD36029FE6
(1625764488.342098) vcan0 14FD3EFE#AABBCCDD379E14F7
(1625764488.342634) vcan0 18F00F52#AABBCCDD38E6796A
(1625764488.346775) vcan0 18F00E51#AABBCCDD39541CA7
(1625764488.642113) vcan0 14FD3EFE#AABBCCDD3AA584AF
(1625764488.642653) vcan0 18F00F52#AABBCCDD3BA4DB55
(1625764488.646776) vcan0 18F00E51#AABBCCDD3C80604C
(1625764488.942151) vcan0 14FD3EFE#AABBCCDD3D15E0E0
(1625764488.942687) vcan0 18F00F52#AABBCCDD3EE893A1
(1625764488.946774) vcan0 18F00E51#AABBCCDD3FA2BB83
(1625764489.242157) vcan0 14FD3EFE#AABBCCDD40107823
(1625764489.242690) vcan0 18F00F52#AABBCCDD416F4200
(1625764489.246775) vcan0 18F00E51#AABBCCDD42054A9D
(1625764489.542036) vcan0 14FD3EFE#AABBCCDD43B49CD1
(1625764489.542569) vcan0 18F00F52#AABBCCDD447FF46B
(1625764489.546787) vcan0 18F00E51#AABBCCDD45DA7E8E
(1625764489.842143) vcan0 14FD3EFE#AABBCCDD46317C5A
(1625764489.842679) vcan0 18F00F52#AABBCCDD47E771E8
(1625764489.846775) vcan0 18F00E51#AABBCCDD483F4A65
(1625764490.142609) vcan0 14FD3EFE#AABBCCDD497DF280
(1625764490.143146) vcan0 18F00F52#AABBCCDD4AAA47BE
(1625764490.146775) vcan0 18F00E51#AABBCCDD4BD97046
(1625764490.441984) vcan0 14FD3EFE#AABBCCDD4C5D4E3A
(1625764490.442524) vcan0 18F00F52#AABBCCDD4D204BDC
(1625764490.446775) vcan0 18F00E51#AABBCCDD4E217C05
(1625764490.742603) vcan0 14FD3EFE#AABBCCDD4F96DE69
(1625764490.743135) vcan0 18F00F52#AABBCCDD5044BD65
(1625764490.746775) vcan0 18F00E51#AABBCCDD51D4F932
(1625764491.042027) vcan0 14FD3EFE#AABBCCDD52712A6B
(1625764491.042562) vcan0 18F00F52#AABBCCDD534FA759
(1625764491.046776) vcan0 18F00E51#AABBCCDD54B04D53
(1625764491.342425) vcan0 14FD3EFE#AABBCCDD55867E74
(1625764491.342952) vcan0 18F00F52#AABBCCDD565FD0CB
(1625764491.346775) vcan0 18F00E51#AABBCCDD57728C74
(1625764491.642162) vcan0 14FD3EFE#AABBCCDD5844AB0D
(1625764491.642695) vcan0 18F00F52#AABBCCDD590F5634
(1625764491.646775) vcan0 18F00E51#AABBCCDD5A12AC26
(1625764491.942441) vcan0 14FD3EFE#AABBCCDD5B6B59F4
(1625764491.942977) vcan0 18F00F52#AABBCCDD5C389024
(1625764491.946774) vcan0 18F00E51#AABBCCDD5DF2AA7D
(1625764492.242075) vcan0 14FD3EFE#AABBCCDD5E655722
(1625764492.242612) vcan0 18F00F52#AABBCCDD5F05A45E
(1625764492.246775) vcan0 18F00E51#AABBCCDD608FDD8C
(1625764492.542374) vcan0 14FD3EFE#AABBCCDD61DF050B
(1625764492.542903) vcan0 18F00F52#AABBCCDD6217477B
(1625764492.546786) vcan0 18F00E51#AABBCCDD63B0B962
(1625764492.842185) vcan0 14FD3EFE#AABBCCDD64E855A3
(1625764492.842717) vcan0 18F00F52#AABBCCDD65283C63
(1625764492.846775) vcan0 18F00E51#AABBCCDD664138E2
(1625764493.142679) vcan0 14FD3EFE#AABBCCDD676606F8
(1625764493.143208) vcan0 18F00F52#AABBCCDD689F3ED1
(1625764493.146775) vcan0 18F00E51#AABBCCDD69115BA8
(1625764493.442070) vcan0 14FD3EFE#AABBCCDD6A608CC1
(1625764493.442603) vcan0 18F00F52#AABBCCDD6B8B5E2A
(1625764493.446775) vcan0 18F00E51#AABBCCDD6C9541C4
(1625764493.742389) vcan0 14FD3EFE#AABBCCDD6DCFE7CE
(1625764493.742921) vcan0 18F00F52#AABBCCDD6E162423
(1625764493.746774) vcan0 18F00E51#AABBCCDD6F3CE9A9
(1625764494.042051) vcan0 14FD3EFE#AABBCCDD7085833C
(1625764494.042592) vcan0 18F00F52#AABBCCDD71B7A0B7
(1625764494.046774) vcan0 18F00E51#AABBCCDD7200E609
(1625764494.342202) vcan0 14FD3EFE#AABBCCDD73C0355F
(1625764494.342730) vcan0 18F00F52#AABBCCDD74BD775A
(1625764494.346774) vcan0 18F00E51#AABBCCDD75C9556C
(1625764494.642313) vcan0 14FD3EFE#AABBCCDD76C50208
(1625764494.642853) vcan0 18F00F52#AABBCCDD77254E85
(1625764494.646775) vcan0 18F00E51#AABBCCDD78FDF13F
(1625764494.942087) vcan0 14FD3EFE#AABBCCDD7934694E
(1625764494.942616) vcan0 18F00F52#AABBCCDD7A04CD14
(1625764494.946774) vcan0 18F00E51#AABBCCDD7BCB9279
(1625764495.242906) vcan0 14FD3EFE#AABBCCDD7C0120A5
(1625764495.243442) vcan0 18F00F52#AABBCCDD7D137DA7
(1625764495.246775) vcan0 18F00E51#AABBCCDD7E9B10CA
(1625764495.542012) vcan0 14FD3EFE#AABBCCDD7F85C173
(1625764495.542553) vcan0 18F00F52#AABBCCDD806E3BC4
(1625764495.546774) vcan0 18F00E51#AABBCCDD810F9260
(1625764495.842579) vcan0 14FD3EFE#AABBCCDD829A87E6
(1625764495.843119) vcan0 18F00F52#AABBCCDD83CD0C96
(1625764495.846774) vcan0 18F00E51#AABBCCDD84995C12
(1625764496.142662) vcan0 14FD3EFE#AABBCCDD853DEF5E
(1625764496.143194) vcan0 18F00F52#AABBCCDD86333108
(1625764496.146774) vcan0 18F00E51#AABBCCDD87FCB70A
(1625764496.442148) vcan0 14FD3EFE#AABBCCDD887FA6B7
(1625764496.442677) vcan0 18F00F52#AABBCCDD896A4DD2
(1625764496.446772) vcan0 18F00E51#AABBCCDD8AB4765E
(1625764496.742995) vcan0 14FD3EFE#AABBCCDD8B800581
(1625764496.743531) vcan0 18F00F52#AABBCCDD8C2F68DE
(1625764496.746775) vcan0 18F00E51#AABBCCDD8D591597
(1625764497.042058) vcan0 14FD3EFE#AABBCCDD8E645A4B
(1625764497.042595) vcan0 18F00F52#AABBCCDD8F2483DC
(1625764497.046777) vcan0 18F00E51#AABBCCDD907F7A91
