(1614674701.507912) vcan0 18FE4A03#FFCD00FFFFFFFFFF
(1614674701.509951) vcan0 0CF00400#007D7D0C2700F37D
(1614674701.513648) vcan0 18F0090B#137D7F0F7D977D82
(1614674701.514239) vcan0 18F0010B#0000C3FFFF010BFF
(1614674701.515023) vcan0 18FCDC00#9FFFFFFF00000000
(1614674701.515575) vcan0 18F0000F#507D7DFF007DFF1A
(1614674701.516150) vcan0 18FEEF00#FFFF0076FFFFFFFF
(1614674701.516721) vcan0 18FEF100#F3652A00000000C0
(1614674701.517303) vcan0 0C000003#F0FFFFFFFFFFFFFF
(1614674701.517875) vcan0 0CF02F2A#03FFFFFFFFFFFFFF
(1614674701.518441) vcan0 0CF00203#CDE411FFFC0127FF
(1614674701.519013) vcan0 18FEF200#000000FBD019FF00
(1614674701.519595) vcan0 0C000F03#FCFFFFFFFFFFFFFF
(1614674701.520172) vcan0 0CFDCC32#000000FF00000000
(1614674701.520738) vcan0 18FEF600#FF333333FF363FFF
(1614674701.521300) vcan0 0CF00400#007D7D0C2700F37D
(1614674701.521871) vcan0 18FEFF00#FCC000B7CCE0FF7C
(1614674701.525747) vcan0 18FECA10#00FF00000000FFFF
(1614674701.526330) vcan0 0C000003#F0FFFFFFFFFFFFFF
(1614674701.526927) vcan0 18F00010#F07D7DF0107D002A
(1614674701.527459) vcan0 0CF00203#CDE211FFFCF926FF
(1614674701.528027) vcan0 18FE5BE8#57FFFFFFE06E0ECB
(1614674701.528595) vcan0 18FE7003#FF729AFCFFFFFFFF
(1614674701.529177) vcan0 18FF5510#00B4FFFFFFFFFFFF
(1614674701.529754) vcan0 0C000F10#FCFFFF7DFFFFFF03
(1614674701.530322) vcan0 0CF00400#007D7D082700F37D
(1614674701.530898) vcan0 18FE5121#9DFFFFFFFFFFFFFF
(1614674701.533762) vcan0 18F0090B#137D7F137DBF7D7F
(1614674701.534344) vcan0 18FEBF0B#022B7E7C7677FFFF
(1614674701.534963) vcan0 18FED90B#0C0037FFFFFFFFFF
(1614674701.535486) vcan0 0CFE6CEE#4B00C0C100FE992A
(1614674701.536065) vcan0 18FDC40B#1C005DF3FFFFFFFF
(1614674701.536642) vcan0 0C010000#FFFFFDFFFFFCFDB4
(1614674701.537225) vcan0 0C000003#F0FFFFFFFFFFFFFF
(1614674701.537798) vcan0 0CF00300#D10000FFFFFB4BFF
(1614674701.538338) vcan0 0CF00203#CDEA11FFFC0927FF
(1614674701.538936) vcan0 18FE4F0B#C400FFFFFFFFFFFF
(1614674701.539510) vcan0 18FDA403#FFFF0FFFFFFFFFFF
(1614674701.540087) vcan0 0CFDCC32#000000FF00000000
(1614674701.540665) vcan0 18FEDF00#835000007D3C0605
(1614674701.541229) vcan0 0CF00400#007D7DFC2600F37D
(1614674701.541818) vcan0 18FEED00#FFFFFFFFFFFAC0FF
(1614674701.546174) vcan0 0C000003#F0FFFFFFFFFFFFFF
(1614674701.546713) vcan0 0CF00203#CD0412FFFC0127FF
(1614674701.547275) vcan0 10FE6F2A#FFFF00E0577C00FF
(1614674701.547843) vcan0 18FF8503#400000868985FFFF
(1614674701.549412) vcan0 0C001005#FCFFFF7DFFFFFF53
(1614674701.550459) vcan0 18FF5505#FFB400FFFFFFFF00
(1614674701.550570) vcan0 0CF00400#007D7D002700F37D
(1614674701.552182) vcan0 18FF102A#FF00FFFF00403FF3
(1614674701.553688) vcan0 18F0090B#137D7F137DE77D7F
(1614674701.554279) vcan0 10F007E8#00FFFFFFFFFFFF00
(1614674701.554848) vcan0 18F0010B#0000C3FFFF010BFF
(1614674701.555420) vcan0 0C010305#FFFFE0FF0300FF57
(1614674701.556882) vcan0 0C000003#F0FFFFFFFFFFFFFF
(1614674701.557438) vcan0 0C040B2A#7ECDCCFFFFFFFFAC
(1614674701.557990) vcan0 0CF00203#CD0312FFFCFD26FF
(1614674701.558567) vcan0 18FF5506#F000FFFFFF3FFFFF
(1614674701.559304) vcan0 0CFDCC32#000000FF00000000
(1614674701.559919) vcan0 0CF00400#007D7D182700F37D
(1614674701.566493) vcan0 0C000003#F0FFFFFFFFFFFFFF
(1614674701.566612) vcan0 18EA0017#E5FE00
