(1614674707.587955) can1 18FFDD46#0000E0024CFFFFFF
(1614674707.590108) can1 18FFDC00#00FFFFFFFF5FFFFF
(1614674707.590687) can1 18FFEF00#B001FDFFFFFFFFFF
(1614674707.593441) can1 18F00E51#D60E925B01BF1FFF
(1614674707.595914) can1 18FFDD46#0000E0024CFFFFFF
(1614674707.600574) can1 18FFDC00#00FFFFFFFF5FFFFF
(1614674707.603906) can1 18FFDD46#0000E0014CFFFFFF
(1614674707.611219) can1 18FFDC00#00FFFFFFFF5FFFFF
(1614674707.611902) can1 18FFDD46#0000E0014CFFFFFF
(1614674707.616437) can1 18FFF1B1#AE015BE403080000
(1614674707.619971) can1 18FFDD46#0000E0014CFFFFFF
(1614674707.620503) can1 18FFDC00#00FFFFFFFF5FFFFF
(1614674707.621098) can1 18FFEF00#B401FDFFFFFFFFFF
(1614674707.627940) can1 18FFDD46#0000E0014CFFFFFF
(1614674707.630123) can1 18FFDC00#00FFFFFFFF5FFFFF
(1614674707.635288) can1 18F00F52#281012F6559F1FFF
(1614674707.635936) can1 18FFDD46#0000E0014CFFFFFF
(1614674707.636484) can1 18FEDF00#83803E4B7D330A05
(1614674707.640070) can1 18FFDC00#00FFFFFFFF5FFFFF
(1614674707.643122) can1 18F00E51#D60E925B01BF1FFF
(1614674707.644131) can1 18FFDD46#0000E0014CFFFFFF
(1614674707.645320) can1 18FFF1B1#B2015BE403090000
(1614674707.651738) can1 18FFDC00#00FFFFFFFF5FFFFF
(1614674707.651897) can1 18FFEF00#B701FDFFFFFFFFFF
(1614674707.652441) can1 18FFDD46#0000E0014CFFFFFF
(1614674707.659962) can1 18FFDD46#0000E0F34CFFFFFF
(1614674707.660548) can1 18FFDC00#00FFFFFFFF5FFFFF
(1614674707.668221) can1 18FFDD46#0000E0F34CFFFFFF
(1614674707.670161) can1 18FFDC00#00FFFFFFFF5FFFFF
(1614674707.675868) can1 18FFF1B1#B6015BE4030A0000
(1614674707.676058) can1 18FFDD46#0000E0F34CFFFFFF
(1614674707.680814) can1 18FFDC00#00FFFFFFFF5FFFFF
(1614674707.681215) can1 18FFEF00#BB01FDFFFFFFFFFF
(1614674707.684260) can1 18FFDD46#0000E0F34CFFFFFF
(1614674707.685284) can1 18F00F52#2810F1F4559F1FFF
(1614674707.687675) can1 18FFF2B1#067E8AAE6B000000
(1614674707.690725) can1 18FFDC00#00FFFFFFFF5FFFFF
(1614674707.692233) can1 18FFDD46#0000E0F34CFFFFFF
(1614674707.693394) can1 18F00E51#D60E925B01BF1FFF
(1614674707.700158) can1 18FFDD46#0000E0F34CFFFFFF
(1614674707.700651) can1 18FFDC00#00FFFFFFFF5FFFFF
(1614674707.705480) can1 18FFF1B1#BB015BE403090000
(1614674707.708087) can1 18FFDD46#0000E0F34CFFFFFF
(1614674707.710372) can1 18FFDC00#00FFFFFFFF5FFFFF
(1614674707.710773) can1 18FFEF00#BD01FDFFFFFFFFFF
(1614674707.716074) can1 18FFDD46#0000E0F34CFFFFFF
(1614674707.720204) can1 18FFDC00#00FFFFFFFF5FFFFF
(1614674707.723971) can1 18FFDD46#0000E0F34CFFFFFF
(1614674707.731797) can1 18FFDC00#00FFFFFFFF5FFFFF
(1614674707.732061) can1 18FFDD46#0000E0F44CFFFFFF
(1614674707.735472) can1 18F00F52#2010A8F3559F1FFF
(1614674707.735929) can1 18FFF1B1#BF015BE403080000
(1614674707.740002) can1 18FFDD46#0000E0F44CFFFFFF
(1614674707.740543) can1 18FFDC00#00FFFFFFFF5FFFFF
(1614674707.741126) can1 18FFEF00#C201FDFFFFFFFFFF
(1614674707.743214) can1 18F00E51#D60E925B01BF1FFF
(1614674707.747554) can1 18FEF680#FFFF46FFFFFF00FF
(1614674707.748411) can1 18FFDD46#0000E0F34CFFFFFF
(1614674707.750634) can1 18FFDC00#00FFFFFFFF5FFFFF
(1614674707.756192) can1 18FFDD46#0000E0F34CFFFFFF
(1614674707.760160) can1 18FFDC00#00FFFFFFFF5FFFFF
(1614674707.764077) can1 18FFDD46#0000E0F34CFFFFFF
(1614674707.765938) can1 18FFF1B1#C8015BE4030B0000
(1614674707.771328) can1 18FFDC00#00FFFFFFFF5FFFFF
(1614674707.771852) can1 18FFEF00#C401FDFFFFFFFFFF
(1614674707.772424) can1 18FFDD46#0000E0F34CFFFFFF
(1614674707.779914) can1 18FFDD46#0000E0F34CFFFFFF
(1614674707.780525) can1 18FFDC00#00FFFFFFFF5FFFFF
(1614674707.785270) can1 18F00F52#201072F1559F1FFF
(1614674707.787703) can1 18FFF2B1#07DE73BDBC0D0000
(1614674707.788260) can1 18FFDD46#0000E0F34CFFFFFF
(1614674707.790112) can1 18FFDC00#00FFFFFFFF5FFFFF
(1614674707.793326) can1 18F00E51#D60E925B01BF1FFF
(1614674707.795381) can1 18FFF1B1#C3015BE403050000
(1614674707.795949) can1 18FFDD46#0000E0F34CFFFFFF
(1614674707.800543) can1 18FFDC00#00FFFFFFFF5FFFFF
(1614674707.801120) can1 18FFEF00#C901FDFFFFFFFFFF
(1614674707.803906) can1 18FFDD46#0000E0F44CFFFFFF
(1614674707.810289) can1 18FFDC00#00FFFFFFFF5FFFFF
(1614674707.811920) can1 18FFDD46#0000E0F44CFFFFFF
(1614674707.819954) can1 18FFDD46#0000E0F34CFFFFFF
(1614674707.820544) can1 18FFDC00#00FFFFFFFF5FFFFF
(1614674707.825426) can1 18FFF1B1#C8015BE403080000
(1614674707.828018) can1 18FFDD46#0000E0F34CFFFFFF
(1614674707.830166) can1 18FFDC00#00FFFFFFFF5FFFFF
(1614674707.830698) can1 18FFEF00#CC01FDFFFFFFFFFF
(1614674707.835435) can1 18F00F52#221043EE559F1FFF
(1614674707.836024) can1 18FFDD46#0000E0F34CFFFFFF
(1614674707.840092) can1 18FFDC00#00FFFFFFFF5FFFFF
(1614674707.843125) can1 18F00E51#D60E925B01BF1FFF
(1614674707.843922) can1 18FFDD46#0000E0F34CFFFFFF
(1614674707.850867) can1 18FFDC00#00FFFFFFFF5FFFFF
(1614674707.851903) can1 18FFDD46#0000E0F34CFFFFFF
(1614674707.855589) can1 18FFF1B1#C8015BE4030B0000
(1614674707.860187) can1 18FFDD46#0000E0F34CFFFFFF
(1614674707.860511) can1 18FFDC00#00FFFFFFFF5FFFFF
(1614674707.861087) can1 18FFEF00#D101FDFFFFFFFFFF
(1614674707.867911) can1 18FFDD46#0000E0F34CFFFFFF
(1614674707.870748) can1 18FFDC00#00FFFFFFFF5FFFFF
(1614674707.875910) can1 18FFDD46#0000E0F34CFFFFFF
