(1614674707.587955) vcan0 18FFDD46#0000E0024CFFFFFF
(1614674707.590108) vcan0 18FFDC00#00FFFFFFFF5FFFFF
(1614674707.590687) vcan0 18FFEF00#B001FDFFFFFFFFFF
(1614674707.593441) vcan0 18F00E51#D60E925B01BF1FFF
(1614674707.595914) vcan0 18FFDD46#0000E0024CFFFFFF
(1614674707.600574) vcan0 18FFDC00#00FFFFFFFF5FFFFF
(1614674707.603906) vcan0 18FFDD46#0000E0014CFFFFFF
(1614674707.611219) vcan0 18FFDC00#00FFFFFFFF5FFFFF
(1614674707.611902) vcan0 18FFDD46#0000E0014CFFFFFF
(1614674707.616437) vcan0 18FFF1B1#AE015BE403080000
(1614674707.619971) vcan0 18FFDD46#0000E0014CFFFFFF
(1614674707.620503) vcan0 18FFDC00#00FFFFFFFF5FFFFF
(1614674707.621098) vcan0 18FFEF00#B401FDFFFFFFFFFF
(1614674707.627940) vcan0 18FFDD46#0000E0014CFFFFFF
(1614674707.630123) vcan0 18FFDC00#00FFFFFFFF5FFFFF
(1614674707.635288) vcan0 18F00F52#281012F6559F1FFF
(1614674707.635936) vcan0 18FFDD46#0000E0014CFFFFFF
(1614674707.636484) vcan0 18FEDF00#83803E4B7D330A05
(1614674707.640070) vcan0 18FFDC00#00FFFFFFFF5FFFFF
(1614674707.643122) vcan0 18F00E51#D60E925B01BF1FFF
(1614674707.644131) vcan0 18FFDD46#0000E0014CFFFFFF
(1614674707.645320) vcan0 18FFF1B1#B2015BE403090000
(1614674707.651738) vcan0 18FFDC00#00FFFFFFFF5FFFFF
(1614674707.651897) vcan0 18FFEF00#B701FDFFFFFFFFFF
(1614674707.652441) vcan0 18FFDD46#0000E0014CFFFFFF
(1614674707.659962) vcan0 18FFDD46#0000E0F34CFFFFFF
(1614674707.660548) vcan0 18FFDC00#00FFFFFFFF5FFFFF
(1614674707.668221) vcan0 18FFDD46#0000E0F34CFFFFFF
(1614674707.670161) vcan0 18FFDC00#00FFFFFFFF5FFFFF
(1614674707.675868) vcan0 18FFF1B1#B6015BE4030A0000
(1614674707.676058) vcan0 18FFDD46#0000E0F34CFFFFFF
(1614674707.680814) vcan0 18FFDC00#00FFFFFFFF5FFFFF
(1614674707.681215) vcan0 18FFEF00#BB01FDFFFFFFFFFF
(1614674707.684260) vcan0 18FFDD46#0000E0F34CFFFFFF
(1614674707.685284) vcan0 18F00F52#2810F1F4559F1FFF
(1614674707.687675) vcan0 18FFF2B1#067E8AAE6B000000
(1614674707.690725) vcan0 18FFDC00#00FFFFFFFF5FFFFF
(1614674707.692233) vcan0 18FFDD46#0000E0F34CFFFFFF
(1614674707.693394) vcan0 18F00E51#D60E925B01BF1FFF
(1614674707.700158) vcan0 18FFDD46#0000E0F34CFFFFFF
(1614674707.700651) vcan0 18FFDC00#00FFFFFFFF5FFFFF
(1614674707.705480) vcan0 18FFF1B1#BB015BE403090000
(1614674707.708087) vcan0 18FFDD46#0000E0F34CFFFFFF
(1614674707.710372) vcan0 18FFDC00#00FFFFFFFF5FFFFF
(1614674707.710773) vcan0 18FFEF00#BD01FDFFFFFFFFFF
(1614674707.716074) vcan0 18FFDD46#0000E0F34CFFFFFF
(1614674707.720204) vcan0 18FFDC00#00FFFFFFFF5FFFFF
(1614674707.723971) vcan0 18FFDD46#0000E0F34CFFFFFF
(1614674707.731797) vcan0 18FFDC00#00FFFFFFFF5FFFFF
(1614674707.732061) vcan0 18FFDD46#0000E0F44CFFFFFF
(1614674707.735472) vcan0 18F00F52#2010A8F3559F1FFF
(1614674707.735929) vcan0 18FFF1B1#BF015BE403080000
(1614674707.740002) vcan0 18FFDD46#0000E0F44CFFFFFF
(1614674707.740543) vcan0 18FFDC00#00FFFFFFFF5FFFFF
(1614674707.741126) vcan0 18FFEF00#C201FDFFFFFFFFFF
(1614674707.743214) vcan0 18F00E51#D60E925B01BF1FFF
(1614674707.747554) vcan0 18FEF680#FFFF46FFFFFF00FF
(1614674707.748411) vcan0 18FFDD46#0000E0F34CFFFFFF
(1614674707.750634) vcan0 18FFDC00#00FFFFFFFF5FFFFF
(1614674707.756192) vcan0 18FFDD46#0000E0F34CFFFFFF
(1614674707.760160) vcan0 18FFDC00#00FFFFFFFF5FFFFF
(1614674707.764077) vcan0 18FFDD46#0000E0F34CFFFFFF
(1614674707.765938) vcan0 18FFF1B1#C8015BE4030B0000
(1614674707.771328) vcan0 18FFDC00#00FFFFFFFF5FFFFF
(1614674707.771852) vcan0 18FFEF00#C401FDFFFFFFFFFF
(1614674707.772424) vcan0 18FFDD46#0000E0F34CFFFFFF
(1614674707.779914) vcan0 18FFDD46#0000E0F34CFFFFFF
(1614674707.780525) vcan0 18FFDC00#00FFFFFFFF5FFFFF
(1614674707.785270) vcan0 18F00F52#201072F1559F1FFF
(1614674707.787703) vcan0 18FFF2B1#07DE73BDBC0D0000
(1614674707.788260) vcan0 18FFDD46#0000E0F34CFFFFFF
(1614674707.790112) vcan0 18FFDC00#00FFFFFFFF5FFFFF
(1614674707.793326) vcan0 18F00E51#D60E925B01BF1FFF
(1614674707.795381) vcan0 18FFF1B1#C3015BE403050000
(1614674707.795949) vcan0 18FFDD46#0000E0F34CFFFFFF
(1614674707.800543) vcan0 18FFDC00#00FFFFFFFF5FFFFF
(1614674707.801120) vcan0 18FFEF00#C901FDFFFFFFFFFF
(1614674707.803906) vcan0 18FFDD46#0000E0F44CFFFFFF
(1614674707.810289) vcan0 18FFDC00#00FFFFFFFF5FFFFF
(1614674707.811920) vcan0 18FFDD46#0000E0F44CFFFFFF
(1614674707.819954) vcan0 18FFDD46#0000E0F34CFFFFFF
(1614674707.820544) vcan0 18FFDC00#00FFFFFFFF5FFFFF
(1614674707.825426) vcan0 18FFF1B1#C8015BE403080000
(1614674707.828018) vcan0 18FFDD46#0000E0F34CFFFFFF
(1614674707.830166) vcan0 18FFDC00#00FFFFFFFF5FFFFF
(1614674707.830698) vcan0 18FFEF00#CC01FDFFFFFFFFFF
(1614674707.835435) vcan0 18F00F52#221043EE559F1FFF
(1614674707.836024) vcan0 18FFDD46#0000E0F34CFFFFFF
(1614674707.840092) vcan0 18FFDC00#00FFFFFFFF5FFFFF
(1614674707.843125) vcan0 18F00E51#D60E925B01BF1FFF
(1614674707.843922) vcan0 18FFDD46#0000E0F34CFFFFFF
(1614674707.850867) vcan0 18FFDC00#00FFFFFFFF5FFFFF
(1614674707.851903) vcan0 18FFDD46#0000E0F34CFFFFFF
(1614674707.855589) vcan0 18FFF1B1#C8015BE4030B0000
(1614674707.860187) vcan0 18FFDD46#0000E0F34CFFFFFF
(1614674707.860511) vcan0 18FFDC00#00FFFFFFFF5FFFFF
(1614674707.861087) vcan0 18FFEF00#D101FDFFFFFFFFFF
(1614674707.867911) vcan0 18FFDD46#0000E0F34CFFFFFF
(1614674707.870748) vcan0 18FFDC00#00FFFFFFFF5FFFFF
(1614674707.875910) vcan0 18FFDD46#0000E0F34CFFFFFF
